T26F8 2851:713 SEGGER J-Link V6.30h Log File (0000ms, 13083ms total)
T26F8 2851:713 DLL Compiled: Mar 16 2018 18:02:51 (0000ms, 13083ms total)
T26F8 2851:713 Logging started @ 2021-08-26 20:40 (0001ms, 13084ms total)
T26F8 2851:714 JLINK_SetWarnOutHandler(...) (0000ms, 13084ms total)
T26F8 2851:714 JLINK_OpenEx(...)
Firmware: J-Link V9 compiled Dec 13 2019 11:14:50
Hardware: V9.20
Feature(s): RDI, FlashBP, FlashDL, JFlash, GDB
TELNET listener socket opened on port 19021WEBSRV 
Starting webserver (0097ms, 13181ms total)
T26F8 2851:714 WEBSRV Webserver running on local port 19080 (0098ms, 13182ms total)
T26F8 2851:714   returns O.K. (0098ms, 13182ms total)
T26F8 2851:812 JLINK_GetEmuCaps()  returns 0xB9FF7BBF (0000ms, 13182ms total)
T26F8 2851:812 JLINK_TIF_GetAvailable(...) (0000ms, 13182ms total)
T26F8 2851:812 JLINK_SetErrorOutHandler(...) (0000ms, 13182ms total)
T26F8 2851:812 JLINK_ExecCommand("ProjectFile = "E:\qq\1523099853\FileRecv\Archaeology(9)\Archaeology\MDK-ARM\JLinkSettings.ini"", ...).   returns 0x00 (0002ms, 13184ms total)
T26F8 2851:814 JLINK_ExecCommand("Device = STM32F427IIHx", ...). Device "STM32F427II" selected.  returns 0x00 (0001ms, 13185ms total)
T26F8 2851:815 JLINK_ExecCommand("DisableConnectionTimeout", ...).   returns 0x01 (0000ms, 13185ms total)
T26F8 2851:815 JLINK_GetHardwareVersion()  returns 0x16760 (0000ms, 13185ms total)
T26F8 2851:815 JLINK_GetDLLVersion()  returns 63008 (0000ms, 13185ms total)
T26F8 2851:815 JLINK_GetFirmwareString(...) (0000ms, 13185ms total)
T26F8 2851:815 JLINK_GetDLLVersion()  returns 63008 (0000ms, 13185ms total)
T26F8 2851:815 JLINK_GetCompileDateTime() (0000ms, 13185ms total)
T26F8 2851:815 JLINK_GetFirmwareString(...) (0000ms, 13185ms total)
T26F8 2851:815 JLINK_GetHardwareVersion()  returns 0x16760 (0000ms, 13185ms total)
T26F8 2851:815 JLINK_TIF_Select(JLINKARM_TIF_SWD)  returns 0x00 (0001ms, 13186ms total)
T26F8 2851:816 JLINK_SetSpeed(5000) (0000ms, 13186ms total)
T26F8 2851:816 JLINK_GetId() >0x10B TIF>Found SW-DP with ID 0x2BA01477 >0x0D TIF> >0x28 TIF> >0x0D TIF> >0x28 TIF> >0x0D TIF> >0x28 TIF> >0x0D TIF> >0x28 TIF> >0x0D TIF> >0x21 TIF> >0x0D TIF> >0x28 TIF> >0x0D TIF> >0x28 TIF> >0x0D TIF> >0x28 TIF> >0x0D TIF> >0x21 TIF> >0x0D TIF> >0x21 TIF> >0x0D TIF> >0x28 TIF> >0x0D TIF> >0x21 TIF> >0x0D TIF> >0x21 TIF> >0x0D TIF> >0x28 TIF> >0x0D TIF> >0x21 TIF> >0x0D TIF> >0x21 TIF> >0x0D TIF> >0x28 TIF> >0x0D TIF> >0x21 TIF> >0x0D TIF> >0x21 TIF> >0x0D TIF>
 >0x28 TIF> >0x0D TIF> >0x21 TIF> >0x0D TIF> >0x21 TIF> >0x0D TIF> >0x28 TIF> >0x0D TIF> >0x21 TIF> >0x0D TIF> >0x21 TIF> >0x0D TIF> >0x28 TIF> >0x0D TIF> >0x21 TIF> >0x0D TIF> >0x21 TIF> >0x10B TIF>Found SW-DP with ID 0x2BA01477 >0x0D TIF> >0x28 TIF> >0x0D TIF> >0x28 TIF> >0x0D TIF> >0x28 TIF> >0x0D TIF> >0x28 TIF> >0x0D TIF> >0x21 TIF> >0x0D TIF> >0x28 TIF>Scanning AP map to find all available APs >0x0D TIF> >0x28 TIF> >0x0D TIF> >0x21 TIF> >0x0D TIF> >0x21 TIF> >0x0D TIF> >0x28 TIF> >0x0D TIF>
 >0x21 TIF> >0x0D TIF> >0x21 TIF>AP[1]: Stopped AP scan as end of AP map has been reachedAP[0]: AHB-AP (IDR: 0x24770011)Iterating through AP map to find AHB-AP to use >0x42 TIF> >0x28 TIF> >0x0D TIF> >0x28 TIF> >0x0D TIF> >0x21 TIF> >0x0D TIF> >0x21 TIF> >0x42 TIF> >0x28 TIF> >0x0D TIF> >0x28 TIF> >0x0D TIF> >0x28 TIF> >0x0D TIF> >0x21 TIF> >0x0D TIF> >0x21 TIF>AP[0]: Core foundAP[0]: AHB-AP ROM base: 0xE00FF000 >0x0D TIF> >0x28 TIF> >0x0D TIF> >0x28 TIF> >0x0D TIF> >0x28 TIF> >0x0D TIF> >0x21 TIF>
 >0x0D TIF> >0x21 TIF>CPUID register: 0x410FC241. Implementer code: 0x41 (ARM)Found Cortex-M4 r0p1, Little endian. -- CPU_ReadMem(4 bytes @ 0xE000EDF0) -- CPU_WriteMem(4 bytes @ 0xE000EDF0) -- CPU_ReadMem(4 bytes @ 0xE0002000)FPUnit: 6 code (BP) slots and 2 literal slots -- CPU_ReadMem(4 bytes @ 0xE000EDFC) -- CPU_WriteMem(4 bytes @ 0xE000EDFC) -- CPU_ReadMem(4 bytes @ 0xE0001000) -- CPU_WriteMem(4 bytes @ 0xE0001000) -- CPU_ReadMem(4 bytes @ 0xE000ED88) -- CPU_WriteMem(4 bytes @ 0xE000ED88)
 -- CPU_ReadMem(4 bytes @ 0xE000ED88) -- CPU_WriteMem(4 bytes @ 0xE000ED88)CoreSight components:ROMTbl[0] @ E00FF000 -- CPU_ReadMem(16 bytes @ 0xE00FF000) -- CPU_ReadMem(16 bytes @ 0xE000EFF0) -- CPU_ReadMem(16 bytes @ 0xE000EFE0)ROMTbl[0][0]: E000E000, CID: B105E00D, PID: 000BB00C SCS-M7 -- CPU_ReadMem(16 bytes @ 0xE0001FF0) -- CPU_ReadMem(16 bytes @ 0xE0001FE0)ROMTbl[0][1]: E0001000, CID: B105E00D, PID: 003BB002 DWT -- CPU_ReadMem(16 bytes @ 0xE0002FF0) -- CPU_ReadMem(16 bytes @ 0xE0002FE0)
ROMTbl[0][2]: E0002000, CID: B105E00D, PID: 002BB003 FPB -- CPU_ReadMem(16 bytes @ 0xE0000FF0) -- CPU_ReadMem(16 bytes @ 0xE0000FE0)ROMTbl[0][3]: E0000000, CID: B105E00D, PID: 003BB001 ITM -- CPU_ReadMem(16 bytes @ 0xE00FF010) -- CPU_ReadMem(16 bytes @ 0xE0040FF0) -- CPU_ReadMem(16 bytes @ 0xE0040FE0)ROMTbl[0][4]: E0040000, CID: B105900D, PID: 000BB9A1 TPIU -- CPU_ReadMem(16 bytes @ 0xE0041FF0) -- CPU_ReadMem(16 bytes @ 0xE0041FE0)ROMTbl[0][5]: E0041000, CID: B105900D, PID: 000BB925 ETM >0x0D TIF>
 >0x21 TIF>  returns 0x2BA01477 (0126ms, 13312ms total)
T26F8 2851:942 JLINK_GetDLLVersion()  returns 63008 (0000ms, 13312ms total)
T26F8 2851:942 JLINK_CORE_GetFound()  returns 0xE0000FF (0000ms, 13312ms total)
T26F8 2851:942 JLINK_GetDebugInfo(0x100 = JLINKARM_ROM_TABLE_ADDR_INDEX) -- Value=0xE00FF000  returns 0x00 (0000ms, 13312ms total)
T26F8 2851:942 JLINK_GetDebugInfo(0x100 = JLINKARM_ROM_TABLE_ADDR_INDEX) -- Value=0xE00FF000  returns 0x00 (0000ms, 13312ms total)
T26F8 2851:942 JLINK_GetDebugInfo(0x101 = JLINKARM_DEBUG_INFO_ETM_ADDR_INDEX) -- Value=0xE0041000  returns 0x00 (0000ms, 13312ms total)
T26F8 2851:942 JLINK_ReadMemEx(0xE0041FD0, 0x0020 Bytes, ..., Flags = 0x02000004) -- CPU_ReadMem(32 bytes @ 0xE0041FD0) - Data: 04 00 00 00 00 00 00 00 00 00 00 00 00 00 00 00 ...  returns 0x20 (0000ms, 13312ms total)
T26F8 2851:942 JLINK_GetDebugInfo(0x102 = JLINKARM_DEBUG_INFO_MTB_ADDR_INDEX) -- Value=0x00000000  returns 0x00 (0000ms, 13312ms total)
T26F8 2851:942 JLINK_GetDebugInfo(0x103 = JLINKARM_DEBUG_INFO_TPIU_ADDR_INDEX) -- Value=0xE0040000  returns 0x00 (0000ms, 13312ms total)
T26F8 2851:942 JLINK_GetDebugInfo(0x104 = JLINKARM_DEBUG_INFO_ITM_ADDR_INDEX) -- Value=0xE0000000  returns 0x00 (0000ms, 13312ms total)
T26F8 2851:942 JLINK_GetDebugInfo(0x105 = JLINKARM_DEBUG_INFO_DWT_ADDR_INDEX) -- Value=0xE0001000  returns 0x00 (0000ms, 13312ms total)
T26F8 2851:942 JLINK_GetDebugInfo(0x106 = JLINKARM_DEBUG_INFO_FPB_ADDR_INDEX) -- Value=0xE0002000  returns 0x00 (0000ms, 13312ms total)
T26F8 2851:942 JLINK_GetDebugInfo(0x107 = JLINKARM_DEBUG_INFO_NVIC_ADDR_INDEX) -- Value=0xE000E000  returns 0x00 (0000ms, 13312ms total)
T26F8 2851:942 JLINK_GetDebugInfo(0x10C = JLINKARM_DEBUG_INFO_DBG_ADDR_INDEX) -- Value=0xE000EDF0  returns 0x00 (0000ms, 13312ms total)
T26F8 2851:942 JLINK_GetDebugInfo(0x01 = Unknown) -- Value=0x00000001  returns 0x00 (0000ms, 13312ms total)
T26F8 2851:942 JLINK_ReadMemU32(0xE000ED00, 0x0001 Items, ...) -- CPU_ReadMem(4 bytes @ 0xE000ED00) - Data: 41 C2 0F 41  returns 0x01 (0001ms, 13313ms total)
T26F8 2851:943 JLINK_GetDebugInfo(0x10F = JLINKARM_DEBUG_INFO_HAS_CORTEX_M_SECURITY_EXT_INDEX) -- Value=0x00000000  returns 0x00 (0000ms, 13313ms total)
T26F8 2851:943 JLINK_SetResetType(JLINKARM_CM3_RESET_TYPE_NORMAL)  returns JLINKARM_CM3_RESET_TYPE_NORMAL (0000ms, 13313ms total)
T26F8 2851:943 JLINK_Reset() -- CPU is running -- CPU_WriteMem(4 bytes @ 0xE000EDF0) -- CPU is running -- CPU_WriteMem(4 bytes @ 0xE000EDFC)Reset: Halt core after reset via DEMCR.VC_CORERESET. >0x35 TIF>Reset: Reset device via AIRCR.SYSRESETREQ. -- CPU is running -- CPU_WriteMem(4 bytes @ 0xE000ED0C) >0x0D TIF> >0x28 TIF> -- CPU_ReadMem(4 bytes @ 0xE000EDF0) -- CPU_ReadMem(4 bytes @ 0xE000EDF0) -- CPU is running -- CPU_WriteMem(4 bytes @ 0xE000EDF0) -- CPU is running -- CPU_WriteMem(4 bytes @ 0xE000EDFC)
 -- CPU_ReadMem(4 bytes @ 0xE000EDF0) -- CPU_WriteMem(4 bytes @ 0xE0002000) -- CPU_ReadMem(4 bytes @ 0xE000EDFC) -- CPU_ReadMem(4 bytes @ 0xE0001000) (0063ms, 13376ms total)
T26F8 2852:006 JLINK_ReadReg(R15 (PC))  returns 0x080001C4 (0000ms, 13376ms total)
T26F8 2852:006 JLINK_ReadReg(XPSR)  returns 0x01000000 (0000ms, 13376ms total)
T26F8 2852:006 JLINK_Halt()  returns 0x00 (0000ms, 13376ms total)
T26F8 2852:006 JLINK_ReadMemU32(0xE000EDF0, 0x0001 Items, ...) -- CPU_ReadMem(4 bytes @ 0xE000EDF0) - Data: 03 00 03 00  returns 0x01 (0000ms, 13376ms total)
T26F8 2852:006 JLINK_WriteU32(0xE000EDF0, 0xA05F0003) -- CPU_WriteMem(4 bytes @ 0xE000EDF0)  returns 0x00 (0000ms, 13376ms total)
T26F8 2852:006 JLINK_WriteU32(0xE000EDFC, 0x01000000) -- CPU_WriteMem(4 bytes @ 0xE000EDFC)  returns 0x00 (0001ms, 13377ms total)
T26F8 2852:007 JLINK_GetHWStatus(...)  returns 0x00 (0000ms, 13377ms total)
T26F8 2852:007 JLINK_GetNumBPUnits(Type = 0xFFFFFF00)  returns 0x06 (0000ms, 13377ms total)
T26F8 2852:007 JLINK_GetNumBPUnits(Type = 0xF0)  returns 0x2000 (0000ms, 13377ms total)
T26F8 2852:007 JLINK_GetNumWPUnits()  returns 0x04 (0000ms, 13377ms total)
T26F8 2852:007 JLINK_GetSpeed()  returns 0xFA0 (0000ms, 13377ms total)
T26F8 2852:007 JLINK_ReadMemU32(0xE000E004, 0x0001 Items, ...) -- CPU_ReadMem(4 bytes @ 0xE000E004) - Data: 02 00 00 00  returns 0x01 (0000ms, 13377ms total)
T26F8 2852:007 JLINK_ReadMemU32(0xE000E004, 0x0001 Items, ...) -- CPU_ReadMem(4 bytes @ 0xE000E004) - Data: 02 00 00 00  returns 0x01 (0001ms, 13378ms total)
T26F8 2852:008 JLINK_WriteMemEx(0xE0001000, 0x001C Bytes, ..., Flags = 0x02000004) - Data: 01 00 00 00 00 00 00 00 00 00 00 00 00 00 00 00 ... -- CPU_WriteMem(28 bytes @ 0xE0001000)  returns 0x1C (0000ms, 13378ms total)
T26F8 2852:008 JLINK_ReadReg(R15 (PC))  returns 0x080001C4 (0000ms, 13378ms total)
T26F8 2852:008 JLINK_ReadReg(XPSR)  returns 0x01000000 (0000ms, 13378ms total)
T26F8 2852:014 JLINK_ReadMemEx(0xE0001004, 0x0004 Bytes, ..., Flags = 0x02000000) - Data: 00 00 00 00  returns 0x04 (0000ms, 13378ms total)
T26F8 2852:109 JLINK_SetResetType(JLINKARM_CM3_RESET_TYPE_NORMAL)  returns JLINKARM_CM3_RESET_TYPE_NORMAL (0000ms, 13378ms total)
T26F8 2852:109 JLINK_Reset() -- CPU_WriteMem(4 bytes @ 0xE000EDF0) -- CPU_WriteMem(4 bytes @ 0xE000EDFC)Reset: Halt core after reset via DEMCR.VC_CORERESET. >0x35 TIF>Reset: Reset device via AIRCR.SYSRESETREQ. -- CPU_WriteMem(4 bytes @ 0xE000ED0C) >0x0D TIF> >0x28 TIF> -- CPU_ReadMem(4 bytes @ 0xE000EDF0) -- CPU_ReadMem(4 bytes @ 0xE000EDF0) -- CPU_WriteMem(4 bytes @ 0xE000EDF0) -- CPU_WriteMem(4 bytes @ 0xE000EDFC) -- CPU_ReadMem(4 bytes @ 0xE000EDF0) -- CPU_WriteMem(4 bytes @ 0xE0002000)
 -- CPU_ReadMem(4 bytes @ 0xE000EDFC) -- CPU_ReadMem(4 bytes @ 0xE0001000) (0065ms, 13443ms total)
T26F8 2852:174 JLINK_ReadReg(R15 (PC))  returns 0x080001C4 (0000ms, 13443ms total)
T26F8 2852:174 JLINK_ReadReg(XPSR)  returns 0x01000000 (0000ms, 13443ms total)
T26F8 2852:174 JLINK_ReadMemEx(0x080001C4, 0x003C Bytes, ..., Flags = 0x02000000) -- CPU_ReadMem(64 bytes @ 0x080001C0) -- Updating C cache (64 bytes @ 0x080001C0) -- Read from C cache (60 bytes @ 0x080001C4) - Data: 06 48 80 47 06 48 00 47 FE E7 FE E7 FE E7 FE E7 ...  returns 0x3C (0001ms, 13444ms total)
T26F8 2853:721 JLINK_ReadReg(R0)  returns 0x00000000 (0001ms, 13445ms total)
T26F8 2853:722 JLINK_ReadReg(R1)  returns 0x00000000 (0000ms, 13445ms total)
T26F8 2853:722 JLINK_ReadReg(R2)  returns 0x00000000 (0000ms, 13445ms total)
T26F8 2853:722 JLINK_ReadReg(R3)  returns 0x00000000 (0000ms, 13445ms total)
T26F8 2853:722 JLINK_ReadReg(R4)  returns 0x00000000 (0000ms, 13445ms total)
T26F8 2853:722 JLINK_ReadReg(R5)  returns 0x00000000 (0000ms, 13445ms total)
T26F8 2853:722 JLINK_ReadReg(R6)  returns 0x00000000 (0000ms, 13445ms total)
T26F8 2853:722 JLINK_ReadReg(R7)  returns 0x00000000 (0000ms, 13445ms total)
T26F8 2853:722 JLINK_ReadReg(R8)  returns 0x00000000 (0000ms, 13445ms total)
T26F8 2853:722 JLINK_ReadReg(R9)  returns 0x00000000 (0000ms, 13445ms total)
T26F8 2853:722 JLINK_ReadReg(R10)  returns 0x00000000 (0000ms, 13445ms total)
T26F8 2853:722 JLINK_ReadReg(R11)  returns 0x00000000 (0000ms, 13445ms total)
T26F8 2853:722 JLINK_ReadReg(R12)  returns 0x00000000 (0000ms, 13445ms total)
T26F8 2853:722 JLINK_ReadReg(R13 (SP))  returns 0x20000850 (0000ms, 13445ms total)
T26F8 2853:722 JLINK_ReadReg(R14)  returns 0xFFFFFFFF (0000ms, 13445ms total)
T26F8 2853:722 JLINK_ReadReg(R15 (PC))  returns 0x080001C4 (0000ms, 13445ms total)
T26F8 2853:722 JLINK_ReadReg(XPSR)  returns 0x01000000 (0000ms, 13445ms total)
T26F8 2853:722 JLINK_ReadReg(MSP)  returns 0x20000850 (0000ms, 13445ms total)
T26F8 2853:722 JLINK_ReadReg(PSP)  returns 0x00000000 (0000ms, 13445ms total)
T26F8 2853:722 JLINK_ReadReg(CFBP)  returns 0x00000000 (0000ms, 13445ms total)
T26F8 2853:722 JLINK_ReadReg(FPSCR)  returns 0x00000000 (0003ms, 13448ms total)
T26F8 2853:725 JLINK_ReadReg(FPS0)  returns 0x00000000 (0000ms, 13448ms total)
T26F8 2853:725 JLINK_ReadReg(FPS1)  returns 0x00000000 (0000ms, 13448ms total)
T26F8 2853:725 JLINK_ReadReg(FPS2)  returns 0x00000000 (0000ms, 13448ms total)
T26F8 2853:725 JLINK_ReadReg(FPS3)  returns 0x00000000 (0000ms, 13448ms total)
T26F8 2853:725 JLINK_ReadReg(FPS4)  returns 0x00000000 (0000ms, 13448ms total)
T26F8 2853:725 JLINK_ReadReg(FPS5)  returns 0x00000000 (0000ms, 13448ms total)
T26F8 2853:725 JLINK_ReadReg(FPS6)  returns 0x00000000 (0000ms, 13448ms total)
T26F8 2853:725 JLINK_ReadReg(FPS7)  returns 0x00000000 (0000ms, 13448ms total)
T26F8 2853:725 JLINK_ReadReg(FPS8)  returns 0x00000000 (0000ms, 13448ms total)
T26F8 2853:725 JLINK_ReadReg(FPS9)  returns 0x00000000 (0000ms, 13448ms total)
T26F8 2853:725 JLINK_ReadReg(FPS10)  returns 0x00000000 (0000ms, 13448ms total)
T26F8 2853:725 JLINK_ReadReg(FPS11)  returns 0x00000000 (0000ms, 13448ms total)
T26F8 2853:725 JLINK_ReadReg(FPS12)  returns 0x00000000 (0000ms, 13448ms total)
T26F8 2853:725 JLINK_ReadReg(FPS13)  returns 0x00000000 (0000ms, 13448ms total)
T26F8 2853:725 JLINK_ReadReg(FPS14)  returns 0x00000000 (0000ms, 13448ms total)
T26F8 2853:725 JLINK_ReadReg(FPS15)  returns 0x00000000 (0000ms, 13448ms total)
T26F8 2853:725 JLINK_ReadReg(FPS16)  returns 0x00000000 (0000ms, 13448ms total)
T26F8 2853:725 JLINK_ReadReg(FPS17)  returns 0x00000000 (0000ms, 13448ms total)
T26F8 2853:725 JLINK_ReadReg(FPS18)  returns 0x00000000 (0000ms, 13448ms total)
T26F8 2853:725 JLINK_ReadReg(FPS19)  returns 0x00000000 (0000ms, 13448ms total)
T26F8 2853:725 JLINK_ReadReg(FPS20)  returns 0x00000000 (0000ms, 13448ms total)
T26F8 2853:725 JLINK_ReadReg(FPS21)  returns 0x00000000 (0000ms, 13448ms total)
T26F8 2853:725 JLINK_ReadReg(FPS22)  returns 0x00000000 (0000ms, 13448ms total)
T26F8 2853:725 JLINK_ReadReg(FPS23)  returns 0x00000000 (0000ms, 13448ms total)
T26F8 2853:725 JLINK_ReadReg(FPS24)  returns 0x00000000 (0000ms, 13448ms total)
T26F8 2853:725 JLINK_ReadReg(FPS25)  returns 0x00000000 (0000ms, 13448ms total)
T26F8 2853:725 JLINK_ReadReg(FPS26)  returns 0x00000000 (0000ms, 13448ms total)
T26F8 2853:725 JLINK_ReadReg(FPS27)  returns 0x00000000 (0000ms, 13448ms total)
T26F8 2853:725 JLINK_ReadReg(FPS28)  returns 0x00000000 (0000ms, 13448ms total)
T26F8 2853:725 JLINK_ReadReg(FPS29)  returns 0x00000000 (0000ms, 13448ms total)
T26F8 2853:725 JLINK_ReadReg(FPS30)  returns 0x00000000 (0000ms, 13448ms total)
T26F8 2853:725 JLINK_ReadReg(FPS31)  returns 0x00000000 (0000ms, 13448ms total)
T26F8 2853:725 JLINK_ReadMemEx(0x2000003F, 0x0001 Bytes, ..., Flags = 0x02000000) -- CPU_ReadMem(64 bytes @ 0x20000000) -- Updating C cache (64 bytes @ 0x20000000) -- Read from C cache (1 bytes @ 0x2000003F) - Data: 00  returns 0x01 (0001ms, 13449ms total)
T26F8 2853:737 JLINK_ReadMemEx(0x20000027, 0x000A Bytes, ..., Flags = 0x02000000) -- Read from C cache (10 bytes @ 0x20000027) - Data: 55 00 00 61 D0 00 00 00 00 00  returns 0x0A (0000ms, 13449ms total)
T26F8 2853:744 JLINK_ReadMemEx(0x200003F0, 0x000A Bytes, ..., Flags = 0x02000000) -- CPU_ReadMem(64 bytes @ 0x200003C0) -- Updating C cache (64 bytes @ 0x200003C0) -- Read from C cache (10 bytes @ 0x200003F0) - Data: 00 00 00 00 00 00 00 00 00 00  returns 0x0A (0001ms, 13450ms total)
T26F8 2853:751 JLINK_ReadMemEx(0x2000003E, 0x0001 Bytes, ..., Flags = 0x02000000) -- Read from C cache (1 bytes @ 0x2000003E) - Data: 01  returns 0x01 (0000ms, 13450ms total)
T2ACC 2853:790 JLINK_ReadMemEx(0x080001C4, 0x0002 Bytes, ..., Flags = 0x02000000) -- Read from C cache (2 bytes @ 0x080001C4) - Data: 06 48  returns 0x02 (0000ms, 13450ms total)
T2ACC 2853:790 JLINK_SetBPEx(Addr = 0x0800307C, Type = 0xFFFFFFF2)  returns 0x00000001 (0000ms, 13450ms total)
T2ACC 2853:790 JLINK_Go() -- CPU_WriteMem(4 bytes @ 0xE0002000) -- CPU_ReadMem(4 bytes @ 0xE0001000) -- CPU_WriteMem(4 bytes @ 0xE0002008) -- CPU_WriteMem(4 bytes @ 0xE000200C) -- CPU_WriteMem(4 bytes @ 0xE0002010) -- CPU_WriteMem(4 bytes @ 0xE0002014) -- CPU_WriteMem(4 bytes @ 0xE0002018) -- CPU_WriteMem(4 bytes @ 0xE000201C) -- CPU_WriteMem(4 bytes @ 0xE0001004) (0002ms, 13452ms total)
T2ACC 2853:892 JLINK_IsHalted()  returns TRUE (0002ms, 13454ms total)
T2ACC 2853:894 JLINK_Halt()  returns 0x00 (0000ms, 13452ms total)
T2ACC 2853:894 JLINK_IsHalted()  returns TRUE (0000ms, 13452ms total)
T2ACC 2853:894 JLINK_IsHalted()  returns TRUE (0000ms, 13452ms total)
T2ACC 2853:894 JLINK_IsHalted()  returns TRUE (0000ms, 13452ms total)
T2ACC 2853:894 JLINK_ReadReg(R15 (PC))  returns 0x0800307C (0000ms, 13452ms total)
T2ACC 2853:894 JLINK_ReadReg(XPSR)  returns 0x61000000 (0000ms, 13452ms total)
T2ACC 2853:894 JLINK_ClrBPEx(BPHandle = 0x00000001)  returns 0x00 (0000ms, 13452ms total)
T2ACC 2853:894 JLINK_ReadMemU32(0xE000ED30, 0x0001 Items, ...) -- CPU_ReadMem(4 bytes @ 0xE000ED30) - Data: 02 00 00 00  returns 0x01 (0000ms, 13452ms total)
T2ACC 2853:894 JLINK_ReadMemU32(0xE0001028, 0x0001 Items, ...) -- CPU_ReadMem(4 bytes @ 0xE0001028) - Data: 00 00 00 00  returns 0x01 (0000ms, 13452ms total)
T2ACC 2853:894 JLINK_ReadMemU32(0xE0001038, 0x0001 Items, ...) -- CPU_ReadMem(4 bytes @ 0xE0001038) - Data: 00 02 00 00  returns 0x01 (0001ms, 13453ms total)
T2ACC 2853:895 JLINK_ReadMemU32(0xE0001048, 0x0001 Items, ...) -- CPU_ReadMem(4 bytes @ 0xE0001048) - Data: 00 00 00 00  returns 0x01 (0000ms, 13453ms total)
T2ACC 2853:895 JLINK_ReadMemU32(0xE0001058, 0x0001 Items, ...) -- CPU_ReadMem(4 bytes @ 0xE0001058) - Data: 00 00 00 00  returns 0x01 (0000ms, 13453ms total)
T2ACC 2853:895 JLINK_ReadReg(R0)  returns 0x0800307D (0000ms, 13453ms total)
T2ACC 2853:895 JLINK_ReadReg(R1)  returns 0x20000850 (0000ms, 13453ms total)
T2ACC 2853:895 JLINK_ReadReg(R2)  returns 0x00000000 (0000ms, 13453ms total)
T2ACC 2853:895 JLINK_ReadReg(R3)  returns 0x0800306D (0000ms, 13453ms total)
T2ACC 2853:895 JLINK_ReadReg(R4)  returns 0x08003308 (0000ms, 13453ms total)
T2ACC 2853:895 JLINK_ReadReg(R5)  returns 0x08003308 (0000ms, 13453ms total)
T2ACC 2853:895 JLINK_ReadReg(R6)  returns 0x00000000 (0000ms, 13453ms total)
T2ACC 2853:895 JLINK_ReadReg(R7)  returns 0x00000000 (0000ms, 13453ms total)
T2ACC 2853:895 JLINK_ReadReg(R8)  returns 0x00000000 (0000ms, 13453ms total)
T2ACC 2853:896 JLINK_ReadReg(R9)  returns 0x00000000 (0000ms, 13454ms total)
T2ACC 2853:896 JLINK_ReadReg(R10)  returns 0x00000000 (0000ms, 13454ms total)
T2ACC 2853:896 JLINK_ReadReg(R11)  returns 0x00000000 (0000ms, 13454ms total)
T2ACC 2853:896 JLINK_ReadReg(R12)  returns 0x00000000 (0000ms, 13454ms total)
T2ACC 2853:896 JLINK_ReadReg(R13 (SP))  returns 0x20000850 (0000ms, 13454ms total)
T2ACC 2853:896 JLINK_ReadReg(R14)  returns 0x080002C9 (0000ms, 13454ms total)
T2ACC 2853:896 JLINK_ReadReg(R15 (PC))  returns 0x0800307C (0000ms, 13454ms total)
T2ACC 2853:896 JLINK_ReadReg(XPSR)  returns 0x61000000 (0000ms, 13454ms total)
T2ACC 2853:896 JLINK_ReadReg(MSP)  returns 0x20000850 (0000ms, 13454ms total)
T2ACC 2853:896 JLINK_ReadReg(PSP)  returns 0x00000000 (0000ms, 13454ms total)
T2ACC 2853:896 JLINK_ReadReg(CFBP)  returns 0x00000000 (0000ms, 13454ms total)
T2ACC 2853:896 JLINK_ReadReg(FPSCR)  returns 0x00000000 (0003ms, 13457ms total)
T2ACC 2853:899 JLINK_ReadReg(FPS0)  returns 0x00000000 (0000ms, 13457ms total)
T2ACC 2853:899 JLINK_ReadReg(FPS1)  returns 0x00000000 (0000ms, 13457ms total)
T2ACC 2853:899 JLINK_ReadReg(FPS2)  returns 0x00000000 (0000ms, 13457ms total)
T2ACC 2853:899 JLINK_ReadReg(FPS3)  returns 0x00000000 (0000ms, 13457ms total)
T2ACC 2853:899 JLINK_ReadReg(FPS4)  returns 0x00000000 (0000ms, 13457ms total)
T2ACC 2853:899 JLINK_ReadReg(FPS5)  returns 0x00000000 (0000ms, 13457ms total)
T2ACC 2853:899 JLINK_ReadReg(FPS6)  returns 0x00000000 (0000ms, 13457ms total)
T2ACC 2853:899 JLINK_ReadReg(FPS7)  returns 0x00000000 (0000ms, 13457ms total)
T2ACC 2853:899 JLINK_ReadReg(FPS8)  returns 0x00000000 (0000ms, 13457ms total)
T2ACC 2853:899 JLINK_ReadReg(FPS9)  returns 0x00000000 (0000ms, 13457ms total)
T2ACC 2853:899 JLINK_ReadReg(FPS10)  returns 0x00000000 (0000ms, 13457ms total)
T2ACC 2853:899 JLINK_ReadReg(FPS11)  returns 0x00000000 (0000ms, 13457ms total)
T2ACC 2853:899 JLINK_ReadReg(FPS12)  returns 0x00000000 (0000ms, 13457ms total)
T2ACC 2853:899 JLINK_ReadReg(FPS13)  returns 0x00000000 (0000ms, 13457ms total)
T2ACC 2853:899 JLINK_ReadReg(FPS14)  returns 0x00000000 (0000ms, 13457ms total)
T2ACC 2853:899 JLINK_ReadReg(FPS15)  returns 0x00000000 (0000ms, 13457ms total)
T2ACC 2853:899 JLINK_ReadReg(FPS16)  returns 0x00000000 (0000ms, 13457ms total)
T2ACC 2853:899 JLINK_ReadReg(FPS17)  returns 0x00000000 (0000ms, 13457ms total)
T2ACC 2853:899 JLINK_ReadReg(FPS18)  returns 0x00000000 (0000ms, 13457ms total)
T2ACC 2853:899 JLINK_ReadReg(FPS19)  returns 0x00000000 (0000ms, 13457ms total)
T2ACC 2853:899 JLINK_ReadReg(FPS20)  returns 0x00000000 (0000ms, 13457ms total)
T2ACC 2853:899 JLINK_ReadReg(FPS21)  returns 0x00000000 (0000ms, 13457ms total)
T2ACC 2853:899 JLINK_ReadReg(FPS22)  returns 0x00000000 (0000ms, 13457ms total)
T2ACC 2853:899 JLINK_ReadReg(FPS23)  returns 0x00000000 (0000ms, 13457ms total)
T2ACC 2853:899 JLINK_ReadReg(FPS24)  returns 0x00000000 (0000ms, 13457ms total)
T2ACC 2853:899 JLINK_ReadReg(FPS25)  returns 0x00000000 (0000ms, 13457ms total)
T2ACC 2853:899 JLINK_ReadReg(FPS26)  returns 0x00000000 (0000ms, 13457ms total)
T2ACC 2853:899 JLINK_ReadReg(FPS27)  returns 0x00000000 (0000ms, 13457ms total)
T2ACC 2853:899 JLINK_ReadReg(FPS28)  returns 0x00000000 (0000ms, 13457ms total)
T2ACC 2853:899 JLINK_ReadReg(FPS29)  returns 0x00000000 (0000ms, 13457ms total)
T2ACC 2853:899 JLINK_ReadReg(FPS30)  returns 0x00000000 (0000ms, 13457ms total)
T2ACC 2853:899 JLINK_ReadReg(FPS31)  returns 0x00000000 (0000ms, 13457ms total)
T26F8 2853:901 JLINK_ReadMemEx(0x2000003F, 0x0001 Bytes, ..., Flags = 0x02000000) -- CPU_ReadMem(64 bytes @ 0x20000000) -- Updating C cache (64 bytes @ 0x20000000) -- Read from C cache (1 bytes @ 0x2000003F) - Data: 00  returns 0x01 (0001ms, 13458ms total)
T26F8 2853:902 JLINK_ReadMemEx(0x20000027, 0x000A Bytes, ..., Flags = 0x02000000) -- Read from C cache (10 bytes @ 0x20000027) - Data: 55 00 00 00 00 00 00 00 00 00  returns 0x0A (0000ms, 13458ms total)
T26F8 2853:902 JLINK_ReadMemEx(0x200003F0, 0x000A Bytes, ..., Flags = 0x02000000) -- CPU_ReadMem(64 bytes @ 0x200003C0) -- Updating C cache (64 bytes @ 0x200003C0) -- Read from C cache (10 bytes @ 0x200003F0) - Data: 00 00 00 00 00 00 00 00 00 00  returns 0x0A (0001ms, 13459ms total)
T26F8 2853:903 JLINK_ReadMemEx(0x2000003E, 0x0001 Bytes, ..., Flags = 0x02000000) -- Read from C cache (1 bytes @ 0x2000003E) - Data: 01  returns 0x01 (0000ms, 13459ms total)
T2ACC 2855:376 JLINK_ReadMemEx(0x0800307C, 0x0002 Bytes, ..., Flags = 0x02000000) -- CPU_ReadMem(64 bytes @ 0x08003040) -- Updating C cache (64 bytes @ 0x08003040) -- Read from C cache (2 bytes @ 0x0800307C) - Data: FD F7  returns 0x02 (0000ms, 13459ms total)
T2ACC 2855:376 JLINK_Go() -- CPU_ReadMem(4 bytes @ 0xE0001000) -- CPU_WriteMem(4 bytes @ 0xE0002008) (0002ms, 13461ms total)
T2ACC 2855:479 JLINK_IsHalted()  returns FALSE (0000ms, 13461ms total)
T2ACC 2855:580 JLINK_IsHalted()  returns FALSE (0000ms, 13461ms total)
T2ACC 2855:680 JLINK_IsHalted()  returns FALSE (0000ms, 13461ms total)
T2ACC 2855:781 JLINK_IsHalted()  returns FALSE (0000ms, 13461ms total)
T2ACC 2855:882 JLINK_IsHalted()  returns FALSE (0000ms, 13461ms total)
T2ACC 2855:983 JLINK_ReadMemU32(0xE0001004, 0x0001 Items, ...) -- CPU_ReadMem(4 bytes @ 0xE0001004) - Data: C6 05 0E 06  returns 0x01 (0000ms, 13461ms total)
T26F8 2855:984 JLINK_ReadMemEx(0x2000003F, 0x0001 Bytes, ..., Flags = 0x02000000) -- CPU_ReadMem(1 bytes @ 0x2000003F) - Data: 00  returns 0x01 (0000ms, 13461ms total)
T26F8 2855:984 JLINK_ReadMemEx(0x20000027, 0x000A Bytes, ..., Flags = 0x02000000) -- CPU_ReadMem(10 bytes @ 0x20000027) - Data: 55 00 00 61 D0 00 00 00 00 00  returns 0x0A (0000ms, 13461ms total)
T26F8 2855:984 JLINK_ReadMemEx(0x200003F0, 0x000A Bytes, ..., Flags = 0x02000000) -- CPU_ReadMem(10 bytes @ 0x200003F0) - Data: 00 00 00 00 00 00 00 00 00 00  returns 0x0A (0001ms, 13462ms total)
T26F8 2855:985 JLINK_ReadMemEx(0x2000003E, 0x0001 Bytes, ..., Flags = 0x02000000) -- CPU_ReadMem(1 bytes @ 0x2000003E) - Data: 01  returns 0x01 (0000ms, 13462ms total)
T2ACC 2855:985 JLINK_IsHalted()  returns FALSE (0000ms, 13462ms total)
T2ACC 2856:086 JLINK_IsHalted()  returns FALSE (0000ms, 13462ms total)
T2ACC 2856:188 JLINK_IsHalted()  returns FALSE (0000ms, 13462ms total)
T2ACC 2856:288 JLINK_IsHalted()  returns FALSE (0000ms, 13462ms total)
T2ACC 2856:389 JLINK_IsHalted()  returns FALSE (0000ms, 13462ms total)
T2ACC 2856:490 JLINK_ReadMemU32(0xE0001004, 0x0001 Items, ...) - Data: C6 05 0E 06  returns 0x01 (0000ms, 13462ms total)
T26F8 2856:490 JLINK_ReadMemEx(0x2000003F, 0x0001 Bytes, ..., Flags = 0x02000000) -- CPU_ReadMem(1 bytes @ 0x2000003F) - Data: 00  returns 0x01 (0000ms, 13462ms total)
T26F8 2856:490 JLINK_ReadMemEx(0x20000027, 0x000A Bytes, ..., Flags = 0x02000000) -- CPU_ReadMem(10 bytes @ 0x20000027) - Data: 55 00 00 61 D0 00 00 00 00 00  returns 0x0A (0001ms, 13463ms total)
T26F8 2856:491 JLINK_ReadMemEx(0x200003F0, 0x000A Bytes, ..., Flags = 0x02000000) -- CPU_ReadMem(10 bytes @ 0x200003F0) - Data: 00 00 00 00 00 00 00 00 00 00  returns 0x0A (0000ms, 13463ms total)
T26F8 2856:491 JLINK_ReadMemEx(0x2000003E, 0x0001 Bytes, ..., Flags = 0x02000000) -- CPU_ReadMem(1 bytes @ 0x2000003E) - Data: 01  returns 0x01 (0000ms, 13463ms total)
T2ACC 2856:491 JLINK_IsHalted()  returns FALSE (0001ms, 13464ms total)
T2ACC 2856:592 JLINK_IsHalted()  returns FALSE (0000ms, 13463ms total)
T26F8 2856:690 JLINK_ReadMemEx(0x20000050, 0x0004 Bytes, ..., Flags = 0x02000000) -- CPU_ReadMem(4 bytes @ 0x20000050) - Data: 00 10 00 40  returns 0x04 (0000ms, 13463ms total)
T26F8 2856:690 JLINK_ReadMemEx(0x2000006C, 0x0001 Bytes, ..., Flags = 0x02000000) -- CPU_ReadMem(1 bytes @ 0x2000006C) - Data: 00  returns 0x01 (0000ms, 13463ms total)
T26F8 2856:690 JLINK_ReadMemEx(0x2000008C, 0x0001 Bytes, ..., Flags = 0x02000000) -- CPU_ReadMem(1 bytes @ 0x2000008C) - Data: 00  returns 0x01 (0001ms, 13464ms total)
T26F8 2856:691 JLINK_ReadMemEx(0x2000008D, 0x0001 Bytes, ..., Flags = 0x02000000) -- CPU_ReadMem(1 bytes @ 0x2000008D) - Data: 01  returns 0x01 (0000ms, 13464ms total)
T26F8 2856:691 JLINK_ReadMemEx(0x20000050, 0x0004 Bytes, ..., Flags = 0x02000000) -- CPU_ReadMem(4 bytes @ 0x20000050) - Data: 00 10 00 40  returns 0x04 (0000ms, 13464ms total)
T26F8 2856:691 JLINK_ReadMemEx(0x2000006C, 0x0001 Bytes, ..., Flags = 0x02000000) -- CPU_ReadMem(1 bytes @ 0x2000006C) - Data: 00  returns 0x01 (0001ms, 13465ms total)
T26F8 2856:692 JLINK_ReadMemEx(0x2000008C, 0x0001 Bytes, ..., Flags = 0x02000000) -- CPU_ReadMem(1 bytes @ 0x2000008C) - Data: 00  returns 0x01 (0000ms, 13465ms total)
T26F8 2856:692 JLINK_ReadMemEx(0x2000008D, 0x0001 Bytes, ..., Flags = 0x02000000) -- CPU_ReadMem(1 bytes @ 0x2000008D) - Data: 01  returns 0x01 (0000ms, 13465ms total)
T2ACC 2856:693 JLINK_IsHalted()  returns FALSE (0000ms, 13465ms total)
T26F8 2856:700 JLINK_ReadMemEx(0x20000050, 0x0004 Bytes, ..., Flags = 0x02000000) -- CPU_ReadMem(4 bytes @ 0x20000050) - Data: 00 10 00 40  returns 0x04 (0001ms, 13466ms total)
T26F8 2856:701 JLINK_ReadMemEx(0x2000006C, 0x0001 Bytes, ..., Flags = 0x02000000) -- CPU_ReadMem(1 bytes @ 0x2000006C) - Data: 00  returns 0x01 (0000ms, 13466ms total)
T26F8 2856:701 JLINK_ReadMemEx(0x2000008C, 0x0001 Bytes, ..., Flags = 0x02000000) -- CPU_ReadMem(1 bytes @ 0x2000008C) - Data: 00  returns 0x01 (0000ms, 13466ms total)
T26F8 2856:701 JLINK_ReadMemEx(0x2000008D, 0x0001 Bytes, ..., Flags = 0x02000000) -- CPU_ReadMem(1 bytes @ 0x2000008D) - Data: 01  returns 0x01 (0001ms, 13467ms total)
T2ACC 2856:794 JLINK_IsHalted()  returns FALSE (0000ms, 13467ms total)
T2ACC 2856:895 JLINK_IsHalted()  returns FALSE (0000ms, 13467ms total)
T2ACC 2856:996 JLINK_IsHalted()  returns FALSE (0000ms, 13467ms total)
T2ACC 2857:097 JLINK_ReadMemU32(0xE0001004, 0x0001 Items, ...) - Data: C6 05 0E 06  returns 0x01 (0000ms, 13467ms total)
T26F8 2857:098 JLINK_ReadMemEx(0x2000003F, 0x0001 Bytes, ..., Flags = 0x02000000) -- CPU_ReadMem(1 bytes @ 0x2000003F) - Data: 00  returns 0x01 (0000ms, 13467ms total)
T26F8 2857:098 JLINK_ReadMemEx(0x20000027, 0x000A Bytes, ..., Flags = 0x02000000) -- CPU_ReadMem(10 bytes @ 0x20000027) - Data: 55 00 00 61 D0 00 00 00 00 00  returns 0x0A (0000ms, 13467ms total)
T26F8 2857:098 JLINK_ReadMemEx(0x200003F0, 0x000A Bytes, ..., Flags = 0x02000000) -- CPU_ReadMem(10 bytes @ 0x200003F0) - Data: 00 00 00 00 00 00 00 00 00 00  returns 0x0A (0001ms, 13468ms total)
T26F8 2857:099 JLINK_ReadMemEx(0x2000003E, 0x0001 Bytes, ..., Flags = 0x02000000) -- CPU_ReadMem(1 bytes @ 0x2000003E) - Data: 01  returns 0x01 (0000ms, 13468ms total)
T26F8 2857:099 JLINK_ReadMemEx(0x20000050, 0x0004 Bytes, ..., Flags = 0x02000000) -- CPU_ReadMem(4 bytes @ 0x20000050) - Data: 00 10 00 40  returns 0x04 (0000ms, 13468ms total)
T26F8 2857:099 JLINK_ReadMemEx(0x2000006C, 0x0001 Bytes, ..., Flags = 0x02000000) -- CPU_ReadMem(1 bytes @ 0x2000006C) - Data: 00  returns 0x01 (0000ms, 13468ms total)
T26F8 2857:099 JLINK_ReadMemEx(0x2000008C, 0x0001 Bytes, ..., Flags = 0x02000000) -- CPU_ReadMem(1 bytes @ 0x2000008C) - Data: 00  returns 0x01 (0001ms, 13469ms total)
T26F8 2857:100 JLINK_ReadMemEx(0x2000008D, 0x0001 Bytes, ..., Flags = 0x02000000) -- CPU_ReadMem(1 bytes @ 0x2000008D) - Data: 01  returns 0x01 (0000ms, 13469ms total)
T2ACC 2857:100 JLINK_IsHalted()  returns FALSE (0000ms, 13469ms total)
T2ACC 2857:201 JLINK_IsHalted()  returns FALSE (0000ms, 13469ms total)
T2ACC 2857:302 JLINK_IsHalted()  returns FALSE (0000ms, 13469ms total)
T2ACC 2857:403 JLINK_IsHalted()  returns FALSE (0000ms, 13469ms total)
T2ACC 2857:504 JLINK_IsHalted()  returns FALSE (0000ms, 13469ms total)
T2ACC 2857:605 JLINK_IsHalted()  returns FALSE (0000ms, 13469ms total)
T2ACC 2857:705 JLINK_ReadMemU32(0xE0001004, 0x0001 Items, ...) - Data: C6 05 0E 06  returns 0x01 (0000ms, 13469ms total)
T26F8 2857:705 JLINK_ReadMemEx(0x2000003F, 0x0001 Bytes, ..., Flags = 0x02000000) -- CPU_ReadMem(1 bytes @ 0x2000003F) - Data: 00  returns 0x01 (0000ms, 13469ms total)
T26F8 2857:705 JLINK_ReadMemEx(0x20000027, 0x000A Bytes, ..., Flags = 0x02000000) -- CPU_ReadMem(10 bytes @ 0x20000027) - Data: 55 00 00 61 D0 00 00 00 00 00  returns 0x0A (0001ms, 13470ms total)
T26F8 2857:706 JLINK_ReadMemEx(0x200003F0, 0x000A Bytes, ..., Flags = 0x02000000) -- CPU_ReadMem(10 bytes @ 0x200003F0) - Data: 00 00 00 00 00 00 00 00 00 00  returns 0x0A (0000ms, 13470ms total)
T26F8 2857:706 JLINK_ReadMemEx(0x2000003E, 0x0001 Bytes, ..., Flags = 0x02000000) -- CPU_ReadMem(1 bytes @ 0x2000003E) - Data: 01  returns 0x01 (0000ms, 13470ms total)
T26F8 2857:706 JLINK_ReadMemEx(0x20000050, 0x0004 Bytes, ..., Flags = 0x02000000) -- CPU_ReadMem(4 bytes @ 0x20000050) - Data: 00 10 00 40  returns 0x04 (0001ms, 13471ms total)
T26F8 2857:707 JLINK_ReadMemEx(0x2000006C, 0x0001 Bytes, ..., Flags = 0x02000000) -- CPU_ReadMem(1 bytes @ 0x2000006C) - Data: 00  returns 0x01 (0000ms, 13471ms total)
T26F8 2857:707 JLINK_ReadMemEx(0x2000008C, 0x0001 Bytes, ..., Flags = 0x02000000) -- CPU_ReadMem(1 bytes @ 0x2000008C) - Data: 00  returns 0x01 (0000ms, 13471ms total)
T26F8 2857:707 JLINK_ReadMemEx(0x2000008D, 0x0001 Bytes, ..., Flags = 0x02000000) -- CPU_ReadMem(1 bytes @ 0x2000008D) - Data: 01  returns 0x01 (0000ms, 13471ms total)
T2ACC 2857:708 JLINK_IsHalted()  returns FALSE (0000ms, 13471ms total)
T2ACC 2857:809 JLINK_IsHalted()  returns FALSE (0000ms, 13471ms total)
T2ACC 2857:910 JLINK_IsHalted()  returns FALSE (0000ms, 13471ms total)
T2ACC 2858:011 JLINK_IsHalted()  returns FALSE (0000ms, 13471ms total)
T2ACC 2858:111 JLINK_IsHalted()  returns FALSE (0000ms, 13471ms total)
T2ACC 2858:212 JLINK_IsHalted()  returns FALSE (0000ms, 13471ms total)
T26F8 2858:270 JLINK_ReadMemEx(0x20000050, 0x0004 Bytes, ..., Flags = 0x02000000) -- CPU_ReadMem(4 bytes @ 0x20000050) - Data: 00 10 00 40  returns 0x04 (0001ms, 13472ms total)
T26F8 2858:271 JLINK_ReadMemEx(0x20000054, 0x0004 Bytes, ..., Flags = 0x02000000) -- CPU_ReadMem(4 bytes @ 0x20000054) - Data: 0F A4 00 00  returns 0x04 (0000ms, 13472ms total)
T26F8 2858:271 JLINK_ReadMemEx(0x20000058, 0x0004 Bytes, ..., Flags = 0x02000000) -- CPU_ReadMem(4 bytes @ 0x20000058) - Data: 00 00 00 00  returns 0x04 (0000ms, 13472ms total)
T26F8 2858:271 JLINK_ReadMemEx(0x2000005C, 0x0004 Bytes, ..., Flags = 0x02000000) -- CPU_ReadMem(4 bytes @ 0x2000005C) - Data: 2F 75 00 00  returns 0x04 (0001ms, 13473ms total)
T26F8 2858:272 JLINK_ReadMemEx(0x20000060, 0x0004 Bytes, ..., Flags = 0x02000000) -- CPU_ReadMem(4 bytes @ 0x20000060) - Data: 00 00 00 00  returns 0x04 (0000ms, 13473ms total)
T26F8 2858:272 JLINK_ReadMemEx(0x20000064, 0x0004 Bytes, ..., Flags = 0x02000000) -- CPU_ReadMem(4 bytes @ 0x20000064) - Data: 00 00 00 00  returns 0x04 (0000ms, 13473ms total)
T26F8 2858:272 JLINK_ReadMemEx(0x20000068, 0x0004 Bytes, ..., Flags = 0x02000000) -- CPU_ReadMem(4 bytes @ 0x20000068) - Data: 00 00 00 00  returns 0x04 (0001ms, 13474ms total)
T26F8 2858:273 JLINK_ReadMemEx(0x2000006C, 0x0004 Bytes, ..., Flags = 0x02000000) -- CPU_ReadMem(4 bytes @ 0x2000006C) - Data: 00 00 00 00  returns 0x04 (0000ms, 13474ms total)
T26F8 2858:273 JLINK_ReadMemEx(0x20000070, 0x0004 Bytes, ..., Flags = 0x02000000) -- CPU_ReadMem(4 bytes @ 0x20000070) - Data: 00 00 00 00  returns 0x04 (0000ms, 13474ms total)
T26F8 2858:273 JLINK_ReadMemEx(0x20000074, 0x0004 Bytes, ..., Flags = 0x02000000) -- CPU_ReadMem(4 bytes @ 0x20000074) - Data: 00 00 00 00  returns 0x04 (0001ms, 13475ms total)
T26F8 2858:274 JLINK_ReadMemEx(0x20000078, 0x0004 Bytes, ..., Flags = 0x02000000) -- CPU_ReadMem(4 bytes @ 0x20000078) - Data: 00 00 00 00  returns 0x04 (0000ms, 13475ms total)
T26F8 2858:274 JLINK_ReadMemEx(0x2000007C, 0x0004 Bytes, ..., Flags = 0x02000000) -- CPU_ReadMem(4 bytes @ 0x2000007C) - Data: 00 00 00 00  returns 0x04 (0000ms, 13475ms total)
T26F8 2858:274 JLINK_ReadMemEx(0x20000080, 0x0004 Bytes, ..., Flags = 0x02000000) -- CPU_ReadMem(4 bytes @ 0x20000080) - Data: 00 00 00 00  returns 0x04 (0001ms, 13476ms total)
T26F8 2858:275 JLINK_ReadMemEx(0x20000084, 0x0004 Bytes, ..., Flags = 0x02000000) -- CPU_ReadMem(4 bytes @ 0x20000084) - Data: 00 00 00 00  returns 0x04 (0000ms, 13476ms total)
T26F8 2858:275 JLINK_ReadMemEx(0x20000088, 0x0004 Bytes, ..., Flags = 0x02000000) -- CPU_ReadMem(4 bytes @ 0x20000088) - Data: 00 00 00 00  returns 0x04 (0000ms, 13476ms total)
T26F8 2858:275 JLINK_ReadMemEx(0x2000008C, 0x0004 Bytes, ..., Flags = 0x02000000) -- CPU_ReadMem(4 bytes @ 0x2000008C) - Data: 00 01 00 00  returns 0x04 (0000ms, 13476ms total)
T26F8 2858:276 JLINK_ReadMemEx(0x20000090, 0x0004 Bytes, ..., Flags = 0x02000000) -- CPU_ReadMem(4 bytes @ 0x20000090) - Data: 00 14 00 40  returns 0x04 (0000ms, 13476ms total)
T26F8 2858:276 JLINK_ReadMemEx(0x20000094, 0x0004 Bytes, ..., Flags = 0x02000000) -- CPU_ReadMem(4 bytes @ 0x20000094) - Data: 53 00 00 00  returns 0x04 (0000ms, 13476ms total)
T26F8 2858:276 JLINK_ReadMemEx(0x20000098, 0x0004 Bytes, ..., Flags = 0x02000000) -- CPU_ReadMem(4 bytes @ 0x20000098) - Data: 00 00 00 00  returns 0x04 (0000ms, 13476ms total)
T26F8 2858:276 JLINK_ReadMemEx(0x2000009C, 0x0004 Bytes, ..., Flags = 0x02000000) -- CPU_ReadMem(4 bytes @ 0x2000009C) - Data: 20 4E 00 00  returns 0x04 (0001ms, 13477ms total)
T26F8 2858:277 JLINK_ReadMemEx(0x200000A0, 0x0004 Bytes, ..., Flags = 0x02000000) -- CPU_ReadMem(4 bytes @ 0x200000A0) - Data: 00 00 00 00  returns 0x04 (0000ms, 13477ms total)
T26F8 2858:277 JLINK_ReadMemEx(0x40001000, 0x0004 Bytes, ..., Flags = 0x02000000) -- CPU_ReadMem(4 bytes @ 0x40001000) - Data: 00 00 00 00  returns 0x04 (0000ms, 13477ms total)
T26F8 2858:277 JLINK_ReadMemEx(0x40001004, 0x0004 Bytes, ..., Flags = 0x02000000) -- CPU_ReadMem(4 bytes @ 0x40001004) - Data: 00 00 00 00  returns 0x04 (0001ms, 13478ms total)
T26F8 2858:278 JLINK_ReadMemEx(0x40001008, 0x0004 Bytes, ..., Flags = 0x02000000) -- CPU_ReadMem(4 bytes @ 0x40001008) - Data: 00 00 00 00  returns 0x04 (0000ms, 13478ms total)
T26F8 2858:278 JLINK_ReadMemEx(0x4000100C, 0x0004 Bytes, ..., Flags = 0x02000000) -- CPU_ReadMem(4 bytes @ 0x4000100C) - Data: 00 00 00 00  returns 0x04 (0000ms, 13478ms total)
T26F8 2858:278 JLINK_ReadMemEx(0x40001010, 0x0004 Bytes, ..., Flags = 0x02000000) -- CPU_ReadMem(4 bytes @ 0x40001010) - Data: 00 00 00 00  returns 0x04 (0000ms, 13478ms total)
T26F8 2858:278 JLINK_ReadMemEx(0x40001014, 0x0004 Bytes, ..., Flags = 0x02000000) -- CPU_ReadMem(4 bytes @ 0x40001014) - Data: 00 00 00 00  returns 0x04 (0001ms, 13479ms total)
T26F8 2858:279 JLINK_ReadMemEx(0x40001018, 0x0004 Bytes, ..., Flags = 0x02000000) -- CPU_ReadMem(4 bytes @ 0x40001018) - Data: 00 00 00 00  returns 0x04 (0000ms, 13479ms total)
T26F8 2858:279 JLINK_ReadMemEx(0x4000101C, 0x0004 Bytes, ..., Flags = 0x02000000) -- CPU_ReadMem(4 bytes @ 0x4000101C) - Data: 00 00 00 00  returns 0x04 (0000ms, 13479ms total)
T26F8 2858:279 JLINK_ReadMemEx(0x40001020, 0x0004 Bytes, ..., Flags = 0x02000000) -- CPU_ReadMem(4 bytes @ 0x40001020) - Data: 00 00 00 00  returns 0x04 (0000ms, 13479ms total)
T26F8 2858:279 JLINK_ReadMemEx(0x40001024, 0x0004 Bytes, ..., Flags = 0x02000000) -- CPU_ReadMem(4 bytes @ 0x40001024) - Data: 00 00 00 00  returns 0x04 (0001ms, 13480ms total)
T26F8 2858:280 JLINK_ReadMemEx(0x40001028, 0x0004 Bytes, ..., Flags = 0x02000000) -- CPU_ReadMem(4 bytes @ 0x40001028) - Data: 0F A4 00 00  returns 0x04 (0000ms, 13480ms total)
T26F8 2858:280 JLINK_ReadMemEx(0x4000102C, 0x0004 Bytes, ..., Flags = 0x02000000) -- CPU_ReadMem(4 bytes @ 0x4000102C) - Data: 2F 75 00 00  returns 0x04 (0000ms, 13480ms total)
T26F8 2858:280 JLINK_ReadMemEx(0x40001030, 0x0004 Bytes, ..., Flags = 0x02000000) -- CPU_ReadMem(4 bytes @ 0x40001030) - Data: 00 00 00 00  returns 0x04 (0000ms, 13480ms total)
T26F8 2858:280 JLINK_ReadMemEx(0x40001034, 0x0004 Bytes, ..., Flags = 0x02000000) -- CPU_ReadMem(4 bytes @ 0x40001034) - Data: 00 00 00 00  returns 0x04 (0001ms, 13481ms total)
T26F8 2858:281 JLINK_ReadMemEx(0x40001038, 0x0004 Bytes, ..., Flags = 0x02000000) -- CPU_ReadMem(4 bytes @ 0x40001038) - Data: 00 00 00 00  returns 0x04 (0000ms, 13481ms total)
T26F8 2858:281 JLINK_ReadMemEx(0x4000103C, 0x0004 Bytes, ..., Flags = 0x02000000) -- CPU_ReadMem(4 bytes @ 0x4000103C) - Data: 00 00 00 00  returns 0x04 (0000ms, 13481ms total)
T26F8 2858:281 JLINK_ReadMemEx(0x40001040, 0x0004 Bytes, ..., Flags = 0x02000000) -- CPU_ReadMem(4 bytes @ 0x40001040) - Data: 00 00 00 00  returns 0x04 (0000ms, 13481ms total)
T26F8 2858:281 JLINK_ReadMemEx(0x40001044, 0x0004 Bytes, ..., Flags = 0x02000000) -- CPU_ReadMem(4 bytes @ 0x40001044) - Data: 00 00 00 00  returns 0x04 (0001ms, 13482ms total)
T26F8 2858:282 JLINK_ReadMemEx(0x40001048, 0x0004 Bytes, ..., Flags = 0x02000000) -- CPU_ReadMem(4 bytes @ 0x40001048) - Data: 00 00 00 00  returns 0x04 (0000ms, 13482ms total)
T26F8 2858:282 JLINK_ReadMemEx(0x4000104C, 0x0004 Bytes, ..., Flags = 0x02000000) -- CPU_ReadMem(4 bytes @ 0x4000104C) - Data: 00 00 00 00  returns 0x04 (0000ms, 13482ms total)
T26F8 2858:282 JLINK_ReadMemEx(0x40001050, 0x0004 Bytes, ..., Flags = 0x02000000) -- CPU_ReadMem(4 bytes @ 0x40001050) - Data: 00 00 00 00  returns 0x04 (0000ms, 13482ms total)
T26F8 2858:292 JLINK_ReadMemEx(0x40001000, 0x0004 Bytes, ..., Flags = 0x02000000) -- CPU_ReadMem(4 bytes @ 0x40001000) - Data: 00 00 00 00  returns 0x04 (0000ms, 13482ms total)
T26F8 2858:292 JLINK_ReadMemEx(0x40001004, 0x0004 Bytes, ..., Flags = 0x02000000) -- CPU_ReadMem(4 bytes @ 0x40001004) - Data: 00 00 00 00  returns 0x04 (0000ms, 13482ms total)
T26F8 2858:292 JLINK_ReadMemEx(0x40001008, 0x0004 Bytes, ..., Flags = 0x02000000) -- CPU_ReadMem(4 bytes @ 0x40001008) - Data: 00 00 00 00  returns 0x04 (0001ms, 13483ms total)
T26F8 2858:293 JLINK_ReadMemEx(0x4000100C, 0x0004 Bytes, ..., Flags = 0x02000000) -- CPU_ReadMem(4 bytes @ 0x4000100C) - Data: 00 00 00 00  returns 0x04 (0000ms, 13483ms total)
T26F8 2858:293 JLINK_ReadMemEx(0x40001010, 0x0004 Bytes, ..., Flags = 0x02000000) -- CPU_ReadMem(4 bytes @ 0x40001010) - Data: 00 00 00 00  returns 0x04 (0000ms, 13483ms total)
T26F8 2858:293 JLINK_ReadMemEx(0x40001014, 0x0004 Bytes, ..., Flags = 0x02000000) -- CPU_ReadMem(4 bytes @ 0x40001014) - Data: 00 00 00 00  returns 0x04 (0001ms, 13484ms total)
T26F8 2858:294 JLINK_ReadMemEx(0x40001018, 0x0004 Bytes, ..., Flags = 0x02000000) -- CPU_ReadMem(4 bytes @ 0x40001018) - Data: 00 00 00 00  returns 0x04 (0000ms, 13484ms total)
T26F8 2858:294 JLINK_ReadMemEx(0x4000101C, 0x0004 Bytes, ..., Flags = 0x02000000) -- CPU_ReadMem(4 bytes @ 0x4000101C) - Data: 00 00 00 00  returns 0x04 (0000ms, 13484ms total)
T26F8 2858:294 JLINK_ReadMemEx(0x40001020, 0x0004 Bytes, ..., Flags = 0x02000000) -- CPU_ReadMem(4 bytes @ 0x40001020) - Data: 00 00 00 00  returns 0x04 (0001ms, 13485ms total)
T26F8 2858:295 JLINK_ReadMemEx(0x40001024, 0x0004 Bytes, ..., Flags = 0x02000000) -- CPU_ReadMem(4 bytes @ 0x40001024) - Data: 00 00 00 00  returns 0x04 (0000ms, 13485ms total)
T26F8 2858:295 JLINK_ReadMemEx(0x40001028, 0x0004 Bytes, ..., Flags = 0x02000000) -- CPU_ReadMem(4 bytes @ 0x40001028) - Data: 0F A4 00 00  returns 0x04 (0000ms, 13485ms total)
T26F8 2858:295 JLINK_ReadMemEx(0x4000102C, 0x0004 Bytes, ..., Flags = 0x02000000) -- CPU_ReadMem(4 bytes @ 0x4000102C) - Data: 2F 75 00 00  returns 0x04 (0001ms, 13486ms total)
T26F8 2858:296 JLINK_ReadMemEx(0x40001030, 0x0004 Bytes, ..., Flags = 0x02000000) -- CPU_ReadMem(4 bytes @ 0x40001030) - Data: 00 00 00 00  returns 0x04 (0000ms, 13486ms total)
T26F8 2858:296 JLINK_ReadMemEx(0x40001034, 0x0004 Bytes, ..., Flags = 0x02000000) -- CPU_ReadMem(4 bytes @ 0x40001034) - Data: 00 00 00 00  returns 0x04 (0000ms, 13486ms total)
T26F8 2858:296 JLINK_ReadMemEx(0x40001038, 0x0004 Bytes, ..., Flags = 0x02000000) -- CPU_ReadMem(4 bytes @ 0x40001038) - Data: 00 00 00 00  returns 0x04 (0000ms, 13486ms total)
T26F8 2858:296 JLINK_ReadMemEx(0x4000103C, 0x0004 Bytes, ..., Flags = 0x02000000) -- CPU_ReadMem(4 bytes @ 0x4000103C) - Data: 00 00 00 00  returns 0x04 (0001ms, 13487ms total)
T26F8 2858:297 JLINK_ReadMemEx(0x40001040, 0x0004 Bytes, ..., Flags = 0x02000000) -- CPU_ReadMem(4 bytes @ 0x40001040) - Data: 00 00 00 00  returns 0x04 (0000ms, 13487ms total)
T26F8 2858:297 JLINK_ReadMemEx(0x40001044, 0x0004 Bytes, ..., Flags = 0x02000000) -- CPU_ReadMem(4 bytes @ 0x40001044) - Data: 00 00 00 00  returns 0x04 (0000ms, 13487ms total)
T26F8 2858:297 JLINK_ReadMemEx(0x40001048, 0x0004 Bytes, ..., Flags = 0x02000000) -- CPU_ReadMem(4 bytes @ 0x40001048) - Data: 00 00 00 00  returns 0x04 (0000ms, 13487ms total)
T26F8 2858:297 JLINK_ReadMemEx(0x4000104C, 0x0004 Bytes, ..., Flags = 0x02000000) -- CPU_ReadMem(4 bytes @ 0x4000104C) - Data: 00 00 00 00  returns 0x04 (0001ms, 13488ms total)
T26F8 2858:298 JLINK_ReadMemEx(0x40001050, 0x0004 Bytes, ..., Flags = 0x02000000) -- CPU_ReadMem(4 bytes @ 0x40001050) - Data: 00 00 00 00  returns 0x04 (0000ms, 13488ms total)
T2ACC 2858:314 JLINK_ReadMemU32(0xE0001004, 0x0001 Items, ...) - Data: C6 05 0E 06  returns 0x01 (0000ms, 13488ms total)
T26F8 2858:314 JLINK_ReadMemEx(0x2000003F, 0x0001 Bytes, ..., Flags = 0x02000000) -- CPU_ReadMem(1 bytes @ 0x2000003F) - Data: 00  returns 0x01 (0000ms, 13488ms total)
T26F8 2858:314 JLINK_ReadMemEx(0x20000027, 0x000A Bytes, ..., Flags = 0x02000000) -- CPU_ReadMem(10 bytes @ 0x20000027) - Data: 55 00 00 61 D0 00 00 00 00 00  returns 0x0A (0000ms, 13488ms total)
T26F8 2858:314 JLINK_ReadMemEx(0x200003F0, 0x000A Bytes, ..., Flags = 0x02000000) -- CPU_ReadMem(10 bytes @ 0x200003F0) - Data: 00 00 00 00 00 00 00 00 00 00  returns 0x0A (0000ms, 13488ms total)
T26F8 2858:314 JLINK_ReadMemEx(0x2000003E, 0x0001 Bytes, ..., Flags = 0x02000000) -- CPU_ReadMem(1 bytes @ 0x2000003E) - Data: 01  returns 0x01 (0000ms, 13488ms total)
T26F8 2858:315 JLINK_ReadMemEx(0x20000050, 0x0004 Bytes, ..., Flags = 0x02000000) -- CPU_ReadMem(4 bytes @ 0x20000050) - Data: 00 10 00 40  returns 0x04 (0000ms, 13488ms total)
T26F8 2858:315 JLINK_ReadMemEx(0x40001000, 0x0004 Bytes, ..., Flags = 0x02000000) -- CPU_ReadMem(4 bytes @ 0x40001000) - Data: 00 00 00 00  returns 0x04 (0000ms, 13488ms total)
T26F8 2858:315 JLINK_ReadMemEx(0x40001004, 0x0004 Bytes, ..., Flags = 0x02000000) -- CPU_ReadMem(4 bytes @ 0x40001004) - Data: 00 00 00 00  returns 0x04 (0000ms, 13488ms total)
T26F8 2858:316 JLINK_ReadMemEx(0x40001008, 0x0004 Bytes, ..., Flags = 0x02000000) -- CPU_ReadMem(4 bytes @ 0x40001008) - Data: 00 00 00 00  returns 0x04 (0000ms, 13488ms total)
T26F8 2858:316 JLINK_ReadMemEx(0x4000100C, 0x0004 Bytes, ..., Flags = 0x02000000) -- CPU_ReadMem(4 bytes @ 0x4000100C) - Data: 00 00 00 00  returns 0x04 (0000ms, 13488ms total)
T26F8 2858:316 JLINK_ReadMemEx(0x40001010, 0x0004 Bytes, ..., Flags = 0x02000000) -- CPU_ReadMem(4 bytes @ 0x40001010) - Data: 00 00 00 00  returns 0x04 (0000ms, 13488ms total)
T26F8 2858:316 JLINK_ReadMemEx(0x40001014, 0x0004 Bytes, ..., Flags = 0x02000000) -- CPU_ReadMem(4 bytes @ 0x40001014) - Data: 00 00 00 00  returns 0x04 (0001ms, 13489ms total)
T26F8 2858:317 JLINK_ReadMemEx(0x40001018, 0x0004 Bytes, ..., Flags = 0x02000000) -- CPU_ReadMem(4 bytes @ 0x40001018) - Data: 00 00 00 00  returns 0x04 (0000ms, 13489ms total)
T26F8 2858:317 JLINK_ReadMemEx(0x4000101C, 0x0004 Bytes, ..., Flags = 0x02000000) -- CPU_ReadMem(4 bytes @ 0x4000101C) - Data: 00 00 00 00  returns 0x04 (0000ms, 13489ms total)
T26F8 2858:317 JLINK_ReadMemEx(0x40001020, 0x0004 Bytes, ..., Flags = 0x02000000) -- CPU_ReadMem(4 bytes @ 0x40001020) - Data: 00 00 00 00  returns 0x04 (0000ms, 13489ms total)
T26F8 2858:317 JLINK_ReadMemEx(0x40001024, 0x0004 Bytes, ..., Flags = 0x02000000) -- CPU_ReadMem(4 bytes @ 0x40001024) - Data: 00 00 00 00  returns 0x04 (0000ms, 13489ms total)
T26F8 2858:317 JLINK_ReadMemEx(0x40001028, 0x0004 Bytes, ..., Flags = 0x02000000) -- CPU_ReadMem(4 bytes @ 0x40001028) - Data: 0F A4 00 00  returns 0x04 (0001ms, 13490ms total)
T26F8 2858:318 JLINK_ReadMemEx(0x4000102C, 0x0004 Bytes, ..., Flags = 0x02000000) -- CPU_ReadMem(4 bytes @ 0x4000102C) - Data: 2F 75 00 00  returns 0x04 (0000ms, 13490ms total)
T26F8 2858:318 JLINK_ReadMemEx(0x40001030, 0x0004 Bytes, ..., Flags = 0x02000000) -- CPU_ReadMem(4 bytes @ 0x40001030) - Data: 00 00 00 00  returns 0x04 (0000ms, 13490ms total)
T26F8 2858:318 JLINK_ReadMemEx(0x40001034, 0x0004 Bytes, ..., Flags = 0x02000000) -- CPU_ReadMem(4 bytes @ 0x40001034) - Data: 00 00 00 00  returns 0x04 (0001ms, 13491ms total)
T26F8 2858:319 JLINK_ReadMemEx(0x40001038, 0x0004 Bytes, ..., Flags = 0x02000000) -- CPU_ReadMem(4 bytes @ 0x40001038) - Data: 00 00 00 00  returns 0x04 (0000ms, 13491ms total)
T26F8 2858:319 JLINK_ReadMemEx(0x4000103C, 0x0004 Bytes, ..., Flags = 0x02000000) -- CPU_ReadMem(4 bytes @ 0x4000103C) - Data: 00 00 00 00  returns 0x04 (0000ms, 13491ms total)
T26F8 2858:319 JLINK_ReadMemEx(0x40001040, 0x0004 Bytes, ..., Flags = 0x02000000) -- CPU_ReadMem(4 bytes @ 0x40001040) - Data: 00 00 00 00  returns 0x04 (0000ms, 13491ms total)
T26F8 2858:319 JLINK_ReadMemEx(0x40001044, 0x0004 Bytes, ..., Flags = 0x02000000) -- CPU_ReadMem(4 bytes @ 0x40001044) - Data: 00 00 00 00  returns 0x04 (0001ms, 13492ms total)
T26F8 2858:320 JLINK_ReadMemEx(0x40001048, 0x0004 Bytes, ..., Flags = 0x02000000) -- CPU_ReadMem(4 bytes @ 0x40001048) - Data: 00 00 00 00  returns 0x04 (0000ms, 13492ms total)
T26F8 2858:320 JLINK_ReadMemEx(0x4000104C, 0x0004 Bytes, ..., Flags = 0x02000000) -- CPU_ReadMem(4 bytes @ 0x4000104C) - Data: 00 00 00 00  returns 0x04 (0000ms, 13492ms total)
T26F8 2858:320 JLINK_ReadMemEx(0x40001050, 0x0004 Bytes, ..., Flags = 0x02000000) -- CPU_ReadMem(4 bytes @ 0x40001050) - Data: 00 00 00 00  returns 0x04 (0000ms, 13492ms total)
T26F8 2858:320 JLINK_ReadMemEx(0x2000006C, 0x0001 Bytes, ..., Flags = 0x02000000) -- CPU_ReadMem(1 bytes @ 0x2000006C) - Data: 00  returns 0x01 (0001ms, 13493ms total)
T26F8 2858:321 JLINK_ReadMemEx(0x2000008C, 0x0001 Bytes, ..., Flags = 0x02000000) -- CPU_ReadMem(1 bytes @ 0x2000008C) - Data: 00  returns 0x01 (0000ms, 13493ms total)
T26F8 2858:321 JLINK_ReadMemEx(0x2000008D, 0x0001 Bytes, ..., Flags = 0x02000000) -- CPU_ReadMem(1 bytes @ 0x2000008D) - Data: 01  returns 0x01 (0000ms, 13493ms total)
T2ACC 2858:321 JLINK_IsHalted()  returns FALSE (0001ms, 13494ms total)
T2ACC 2858:423 JLINK_IsHalted()  returns FALSE (0000ms, 13493ms total)
T2ACC 2858:524 JLINK_IsHalted()  returns FALSE (0000ms, 13493ms total)
T2ACC 2858:625 JLINK_IsHalted()  returns FALSE (0000ms, 13493ms total)
T2ACC 2858:725 JLINK_IsHalted()  returns FALSE (0000ms, 13493ms total)
T2ACC 2858:826 JLINK_IsHalted()  returns FALSE (0000ms, 13493ms total)
T2ACC 2858:927 JLINK_ReadMemU32(0xE0001004, 0x0001 Items, ...) - Data: C6 05 0E 06  returns 0x01 (0000ms, 13493ms total)
